# GHz S RI R 50
! Example converted S2P file
! Freq(GHz)   S11_real   S11_imag   S21_real   S21_imag   S12_real   S12_imag   S22_real   S22_imag
4.0000000000000		0.0		0.0		0.59021265988635	-5.1217387629073	0.59021265988635	-5.1217387629073	0.0		0.0
4.0020000000000		0.0		0.0		0.50172650773299	-5.0880650490607    0.50172650773299	-5.0880650490607    0.0		0.0
4.0040000000000		0.0		0.0		0.41463097357213	-5.0532263212782    0.41463097357213	-5.0532263212782    0.0		0.0
4.0060000000000		0.0		0.0		0.32893090835230	-5.0172552215090    0.32893090835230	-5.0172552215090    0.0		0.0
4.0080000000000		0.0		0.0		0.24463072384126	-4.9801841173160    0.24463072384126	-4.9801841173160    0.0		0.0
4.0100000000000		0.0		0.0		0.16173439960348	-4.9420451032210    0.16173439960348	-4.9420451032210    0.0		0.0
4.0120000000000		0.0		0.0		0.098806414887020	-4.9489460862668    0.098806414887020	-4.9489460862668    0.0		0.0
4.0140000000000		0.0		0.0		0.035881170107777	-4.9552450612701    0.035881170107777	-4.9552450612701    0.0		0.0
4.0160000000000		0.0		0.0		-0.027039117516989	-4.9609477851138    -0.027039117516989	-4.9609477851138    0.0		0.0
4.0180000000000		0.0		0.0		-0.089952415798038	-4.9660599597184    -0.089952415798038	-4.9660599597184    0.0		0.0
4.0200000000000		0.0		0.0		-0.15285687547620	-4.9705872308085    -0.15285687547620	-4.9705872308085    0.0		0.0
4.0220000000000		0.0		0.0		-0.16153881878802	-5.0240070370280    -0.16153881878802	-5.0240070370280    0.0		0.0
4.0240000000000		0.0		0.0		-0.17088183105767	-5.0780985071609    -0.17088183105767	-5.0780985071609    0.0		0.0
4.0260000000000		0.0		0.0		-0.18091391939389	-5.1328646046085    -0.18091391939389	-5.1328646046085    0.0		0.0
4.0280000000000		0.0		0.0		-0.19166404592877	-5.1883076691910    -0.19166404592877	-5.1883076691910    0.0		0.0
4.0300000000000		0.0		0.0		-0.20316214540207	-5.2444293615203    -0.20316214540207	-5.2444293615203    0.0		0.0
4.0320000000000		0.0		0.0		-0.19426071468115	-5.1264513898975    -0.19426071468115	-5.1264513898975    0.0		0.0
4.0340000000000		0.0		0.0		-0.19067549559182	-5.0119643777027    -0.19067549559182	-5.0119643777027    0.0		0.0
4.0360000000000		0.0		0.0		-0.19180911230501	-4.9010088107599    -0.19180911230501	-4.9010088107599    0.0		0.0
4.0380000000000		0.0		0.0		-0.19711723872851	-4.7935789228378    -0.19711723872851	-4.7935789228378    0.0		0.0
4.0400000000000		0.0		0.0		-0.20610635458424	-4.6896325788625    -0.20610635458424	-4.6896325788625    0.0		0.0
4.0420000000000		0.0		0.0		-0.21978125860902	-4.7030122112042    -0.21978125860902	-4.7030122112042    0.0		0.0
4.0440000000000		0.0		0.0		-0.23360514536425	-4.7164106749161    -0.23360514536425	-4.7164106749161    0.0		0.0
4.0460000000000		0.0		0.0		-0.24757954194976	-4.7298270672379    -0.24757954194976	-4.7298270672379    0.0		0.0
4.0480000000000		0.0		0.0		-0.26170598573612	-4.7432604593351    -0.26170598573612	-4.7432604593351    0.0		0.0
4.0500000000000		0.0		0.0		-0.27598602420644	-4.7567098957672    -0.27598602420644	-4.7567098957672    0.0		0.0
4.0520000000000		0.0		0.0		-0.36479887885945	-4.6994517227165    -0.36479887885945	-4.6994517227165    0.0		0.0
4.0540000000000		0.0		0.0		-0.45163028411844	-4.6417388941581    -0.45163028411844	-4.6417388941581    0.0		0.0
4.0560000000000		0.0		0.0		-0.53651382635692	-4.5835875535367    -0.53651382635692	-4.5835875535367    0.0		0.0
4.0580000000000		0.0		0.0		-0.61948179254601	-4.5250136235263    -0.61948179254601	-4.5250136235263    0.0		0.0
4.0600000000000		0.0		0.0		-0.70056524116365	-4.4660328138137    -0.70056524116365	-4.4660328138137    0.0		0.0
4.0620000000000		0.0		0.0		-0.68452074771307	-4.4588355124943    -0.68452074771307	-4.4588355124943    0.0		0.0
4.0640000000000		0.0		0.0		-0.66832073491255	-4.4519551531628    -0.66832073491255	-4.4519551531628    0.0		0.0
4.0660000000000		0.0		0.0		-0.65196169276222	-4.4453854512285    -0.65196169276222	-4.4453854512285    0.0		0.0
4.0680000000000		0.0		0.0		-0.63543999625114	-4.4391201795813    -0.63543999625114	-4.4391201795813    0.0		0.0
4.0700000000000		0.0		0.0		-0.61875190684447	-4.4331531608667    -0.61875190684447	-4.4331531608667    0.0		0.0
4.0720000000000		0.0		0.0		-0.63029399938049	-4.4547221811200    -0.63029399938049	-4.4547221811200    0.0		0.0
4.0740000000000		0.0		0.0		-0.64192024925401	-4.4763000589526    -0.64192024925401	-4.4763000589526    0.0		0.0
4.0760000000000		0.0		0.0		-0.65363075256278	-4.4978867523351    -0.65363075256278	-4.4978867523351    0.0		0.0
4.0780000000000		0.0		0.0		-0.66542560593661	-4.5194822197861    -0.66542560593661	-4.5194822197861    0.0		0.0
4.0800000000000		0.0		0.0		-0.67730490654088	-4.5410864203746    -0.67730490654088	-4.5410864203746    0.0		0.0
4.0820000000000		0.0		0.0		-0.71135795344420	-4.4436256258778    -0.71135795344420	-4.4436256258778    0.0		0.0
4.0840000000000		0.0		0.0		-0.74556607464091	-4.3480516822494    -0.74556607464091	-4.3480516822494    0.0		0.0
4.0860000000000		0.0		0.0		-0.77981381700614	-4.2543041654931    -0.77981381700614	-4.2543041654931    0.0		0.0
4.0880000000000		0.0		0.0		-0.81399658844912	-4.1623224854825    -0.81399658844912	-4.1623224854825    0.0		0.0
4.0900000000000		0.0		0.0		-0.84801980559505	-4.0720464517816    -0.84801980559505	-4.0720464517816    0.0		0.0
4.0920000000000		0.0		0.0		-0.85986077006654	-4.0745293115665    -0.85986077006654	-4.0745293115665    0.0		0.0
4.0940000000000		0.0		0.0		-0.87161494443273	-4.0772546074229    -0.87161494443273	-4.0772546074229    0.0		0.0
4.0960000000000		0.0		0.0		-0.88328249174330	-4.0802254902685    -0.88328249174330	-4.0802254902685    0.0		0.0
4.0980000000000		0.0		0.0		-0.89486348987314	-4.0834451913886    -0.89486348987314	-4.0834451913886    0.0		0.0
4.1000000000000		0.0		0.0		-0.90635792894857	-4.0869170245023    -0.90635792894857	-4.0869170245023    0.0		0.0
4.1020000000000		0.0		0.0		-1.0071676788227	-4.1498620555580    -1.0071676788227	-4.1498620555580    0.0		0.0
4.1040000000000		0.0		0.0		-1.1129501256623	-4.2122580543484    -1.1129501256623	-4.2122580543484    0.0		0.0
4.1060000000000		0.0		0.0		-1.2239362549478	-4.2739018953871    -1.2239362549478	-4.2739018953871    0.0		0.0
4.1080000000000		0.0		0.0		-1.3403631949912	-4.3345654679849    -1.3403631949912	-4.3345654679849    0.0		0.0
4.1100000000000		0.0		0.0		-1.4624732036994	-4.3939931283308    -1.4624732036994	-4.3939931283308    0.0		0.0
4.1120000000000		0.0		0.0		-1.4324260257831	-4.3441728524865    -1.4324260257831	-4.3441728524865    0.0		0.0
4.1140000000000		0.0		0.0		-1.4037331473665	-4.2951845979833    -1.4037331473665	-4.2951845979833    0.0		0.0
4.1160000000000		0.0		0.0		-1.3763280556526	-4.2470209866877    -1.3763280556526	-4.2470209866877    0.0		0.0
4.1180000000000		0.0		0.0		-1.3501477390832	-4.1996734676958    -1.3501477390832	-4.1996734676958    0.0		0.0
4.1200000000000		0.0		0.0		-1.3251325036021	-4.1531324890450    -1.3251325036021	-4.1531324890450    0.0		0.0
4.1220000000000		0.0		0.0		-1.2926338946896	-3.9795821649440    -1.2926338946896	-3.9795821649440    0.0		0.0
4.1240000000000		0.0		0.0		-1.2692791605297	-3.8139569806923    -1.2692791605297	-3.8139569806923    0.0		0.0
4.1260000000000		0.0		0.0		-1.2534194154818	-3.6560286284816    -1.2534194154818	-3.6560286284816    0.0		0.0
4.1280000000000		0.0		0.0		-1.2436648614554	-3.5054701133103    -1.2436648614554	-3.5054701133103    0.0		0.0
4.1300000000000		0.0		0.0		-1.2388484991904	-3.3618977841654    -1.2388484991904	-3.3618977841654    0.0		0.0
4.1320000000000		0.0		0.0		-1.2620074392908	-3.5117257823708    -1.2620074392908	-3.5117257823708    0.0		0.0
4.1340000000000		0.0		0.0		-1.2936788793001	-3.6725150972318    -1.2936788793001	-3.6725150972318    0.0		0.0
4.1360000000000		0.0		0.0		-1.3357875907801	-3.8452600305961    -1.3357875907801	-3.8452600305961    0.0		0.0
4.1380000000000		0.0		0.0		-1.3907325386506	-4.0309466174673    -1.3907325386506	-4.0309466174673    0.0		0.0
4.1400000000000		0.0		0.0		-1.4615051949392	-4.2304835590126    -1.4615051949392	-4.2304835590126    0.0		0.0
4.1420000000000		0.0		0.0		-1.4932404694665	-4.1641158233969    -1.4932404694665	-4.1641158233969    0.0		0.0
4.1440000000000		0.0		0.0		-1.5246660066049	-4.0981716730288    -1.5246660066049	-4.0981716730288    0.0		0.0
4.1460000000000		0.0		0.0		-1.5557534380588	-4.0326423423676    -1.5557534380588	-4.0326423423676    0.0		0.0
4.1480000000000		0.0		0.0		-1.5864761520540	-3.9675191686932    -1.5864761520540	-3.9675191686932    0.0		0.0
4.1500000000000		0.0		0.0		-1.6168092030732	-3.9027936445146    -1.6168092030732	-3.9027936445146    0.0		0.0
4.1520000000000		0.0		0.0		-1.6610320338944	-4.0796043424056    -1.6610320338944	-4.0796043424056    0.0		0.0
4.1540000000000		0.0		0.0		-1.7147166898271	-4.2696109107753    -1.7147166898271	-4.2696109107753    0.0		0.0
4.1560000000000		0.0		0.0		-1.7797623937501	-4.4740785613987    -1.7797623937501	-4.4740785613987    0.0		0.0
4.1580000000000		0.0		0.0		-1.8585125821045	-4.6943480948399    -1.8585125821045	-4.6943480948399    0.0		0.0
4.1600000000000		0.0		0.0		-1.9538676673068	-4.9318049749759    -1.9538676673068	-4.9318049749759    0.0		0.0
4.1620000000000		0.0		0.0		-1.9165709489942	-4.7541950155729    -1.9165709489942	-4.7541950155729    0.0		0.0
4.1640000000000		0.0		0.0		-1.8879123890722	-4.5813811609299    -1.8879123890722	-4.5813811609299    0.0		0.0
4.1660000000000		0.0		0.0		-1.8666062208544	-4.4135851364278    -1.8666062208544	-4.4135851364278    0.0		0.0
4.1680000000000		0.0		0.0		-1.8515096590467	-4.2508947462463    -1.8515096590467	-4.2508947462463    0.0		0.0
4.1700000000000		0.0		0.0		-1.8416147606287	-4.0932986397077    -1.8416147606287	-4.0932986397077    0.0		0.0
4.1720000000000		0.0		0.0		-1.9167952765642	-4.0950983581929    -1.9167952765642	-4.0950983581929    0.0		0.0
4.1740000000000		0.0		0.0		-1.9928195249040	-4.0958169761856    -1.9928195249040	-4.0958169761856    0.0		0.0
4.1760000000000		0.0		0.0		-2.0696863178089	-4.0954245853798    -2.0696863178089	-4.0954245853798    0.0		0.0
4.1780000000000		0.0		0.0		-2.1473939883879	-4.0938905463394    -2.1473939883879	-4.0938905463394    0.0		0.0
4.1800000000000		0.0		0.0		-2.2259403607000	-4.0911834727388    -2.2259403607000	-4.0911834727388    0.0		0.0
4.1820000000000		0.0		0.0		-2.2588379327978	-4.2704340242488    -2.2588379327978	-4.2704340242488    0.0		0.0
4.1840000000000		0.0		0.0		-2.2963218515743	-4.4625701173646    -2.2963218515743	-4.4625701173646    0.0		0.0
4.1860000000000		0.0		0.0		-2.3391287374183	-4.6690426881877    -2.3391287374183	-4.6690426881877    0.0		0.0
4.1880000000000		0.0		0.0		-2.3881521397595	-4.8915156022071    -2.3881521397595	-4.8915156022071    0.0		0.0
4.1900000000000		0.0		0.0		-2.4444830676613	-5.1319045458086    -2.4444830676613	-5.1319045458086    0.0		0.0
4.1920000000000		0.0		0.0		-2.5468051673094	-4.8729511575122    -2.5468051673094	-4.8729511575122    0.0		0.0
4.1940000000000		0.0		0.0		-2.6394890238492	-4.6268566332567    -2.6394890238492	-4.6268566332567    0.0		0.0
4.1960000000000		0.0		0.0		-2.7235618404259	-4.3923448348637    -2.7235618404259	-4.3923448348637    0.0		0.0
4.1980000000000		0.0		0.0		-2.7998966574094	-4.1682974396108    -2.7998966574094	-4.1682974396108    0.0		0.0
4.2000000000000		0.0		0.0		-2.8692393733630	-3.9537305872999    -2.8692393733630	-3.9537305872999    0.0		0.0
4.2020000000000		0.0		0.0		-2.8872066337872	-4.3338841347906    -2.8872066337872	-4.3338841347906    0.0		0.0
4.2040000000000		0.0		0.0		-2.9087910097516	-4.7703553706096    -2.9087910097516	-4.7703553706096    0.0		0.0
4.2060000000000		0.0		0.0		-2.9342495276817	-5.2781894540983    -2.9342495276817	-5.2781894540983    0.0		0.0
4.2080000000000		0.0		0.0		-2.9637669917237	-5.8781135289181    -2.9637669917237	-5.8781135289181    0.0		0.0
4.2100000000000		0.0		0.0		-2.9973170368070	-6.5995171656958    -2.9973170368070	-6.5995171656958    0.0		0.0
4.2120000000000		0.0		0.0		-3.2340360200914	-6.0919441156882    -3.2340360200914	-6.0919441156882    0.0		0.0
4.2140000000000		0.0		0.0		-3.4270954030557	-5.6243218110670    -3.4270954030557	-5.6243218110670    0.0		0.0
4.2160000000000		0.0		0.0		-3.5853262645341	-5.1922328193975    -3.5853262645341	-5.1922328193975    0.0		0.0
4.2180000000000		0.0		0.0		-3.7155031082915	-4.7916473457900    -3.7155031082915	-4.7916473457900    0.0		0.0
4.2200000000000		0.0		0.0		-3.8228704629498	-4.4189629211714    -3.8228704629498	-4.4189629211714    0.0		0.0
4.2220000000000		0.0		0.0		-3.8647241581612	-4.4712776923336    -3.8647241581612	-4.4712776923336    0.0		0.0
4.2240000000000		0.0		0.0		-3.9070901138744	-4.5246472044560    -3.9070901138744	-4.5246472044560    0.0		0.0
4.2260000000000		0.0		0.0		-3.9499753154206	-4.5791036403009    -3.9499753154206	-4.5791036403009    0.0		0.0
4.2280000000000		0.0		0.0		-3.9933867088335	-4.6346803892487    -3.9933867088335	-4.6346803892487    0.0		0.0
4.2300000000000		0.0		0.0		-4.0373311852061	-4.6914121013509    -4.0373311852061	-4.6914121013509    0.0		0.0
4.2320000000000		0.0		0.0		-4.3060700109624	-4.4929161993678    -4.3060700109624	-4.4929161993678    0.0		0.0
4.2340000000000		0.0		0.0		-4.5637579314584	-4.2814688955393    -4.5637579314584	-4.2814688955393    0.0		0.0
4.2360000000000		0.0		0.0		-4.8101705246751	-4.0578995503662    -4.8101705246751	-4.0578995503662    0.0		0.0
4.2380000000000		0.0		0.0		-5.0451649236421	-3.8229729526978    -5.0451649236421	-3.8229729526978    0.0		0.0
4.2400000000000		0.0		0.0		-5.2686665237628	-3.5773824348224    -5.2686665237628	-3.5773824348224    0.0		0.0
4.2420000000000		0.0		0.0		-5.2827412216131	-3.5376600436643    -5.2827412216131	-3.5376600436643    0.0		0.0
4.2440000000000		0.0		0.0		-5.2965309886337	-3.4979156102009    -5.2965309886337	-3.4979156102009    0.0		0.0
4.2460000000000		0.0		0.0		-5.3100361232888	-3.4581510643806    -5.3100361232888	-3.4581510643806    0.0		0.0
4.2480000000000		0.0		0.0		-5.3232569367166	-3.4183683316941    -5.3232569367166	-3.4183683316941    0.0		0.0
4.2500000000000		0.0		0.0		-5.3361937526861	-3.3785693330907    -5.3361937526861	-3.3785693330907    0.0		0.0
4.2520000000000		0.0		0.0		-4.8906174930148	-3.8404396144590    -4.8906174930148	-3.8404396144590    0.0		0.0
4.2540000000000		0.0		0.0		-4.4037014702100	-4.2570155023114    -4.4037014702100	-4.2570155023114    0.0		0.0
4.2560000000000		0.0		0.0		-3.8767039170299	-4.6220331082560    -3.8767039170299	-4.6220331082560    0.0		0.0
4.2580000000000		0.0		0.0		-3.3128110687828	-4.9282153539073    -3.3128110687828	-4.9282153539073    0.0		0.0
4.2600000000000		0.0		0.0		-2.7175754772783	-5.1679172421494    -2.7175754772783	-5.1679172421494    0.0		0.0
4.2620000000000		0.0		0.0		-3.4599254116540	-4.9625949630432    -3.4599254116540	-4.9625949630432    0.0		0.0
4.2640000000000		0.0		0.0		-4.1922474273651	-4.6433398673253    -4.1922474273651	-4.6433398673253    0.0		0.0
4.2660000000000		0.0		0.0		-4.8964778974801	-4.2102171305822    -4.8964778974801	-4.2102171305822    0.0		0.0
4.2680000000000		0.0		0.0		-5.5550670702255	-3.6660620523791    -5.5550670702255	-3.6660620523791    0.0		0.0
4.2700000000000		0.0		0.0		-6.1513182564432	-3.0159731315337    -6.1513182564432	-3.0159731315337    0.0		0.0
4.2720000000000		0.0		0.0		-5.9246736267057	-2.9946867215056    -5.9246736267057	-2.9946867215056    0.0		0.0
4.2740000000000		0.0		0.0		-5.7104604074808	-2.9565448523775    -5.7104604074808	-2.9565448523775    0.0		0.0
4.2760000000000		0.0		0.0		-5.5090966908365	-2.9045077143057    -5.5090966908365	-2.9045077143057    0.0		0.0
4.2780000000000		0.0		0.0		-5.3205792067354	-2.8412040350089    -5.3205792067354	-2.8412040350089    0.0		0.0
4.2800000000000		0.0		0.0		-5.1445997525381	-2.7689232014411    -5.1445997525381	-2.7689232014411    0.0		0.0
4.2820000000000		0.0		0.0		-5.2418329019494	-2.7047147806268    -5.2418329019494	-2.7047147806268    0.0		0.0
4.2840000000000		0.0		0.0		-5.3390974704684	-2.6374502804634    -5.3390974704684	-2.6374502804634    0.0		0.0
4.2860000000000		0.0		0.0		-5.4363094376409	-2.5670621016988    -5.4363094376409	-2.5670621016988    0.0		0.0
4.2880000000000		0.0		0.0		-5.5333798606414	-2.4934836292089    -5.5333798606414	-2.4934836292089    0.0		0.0
4.2900000000000		0.0		0.0		-5.6302147331032	-2.4166494907056    -5.6302147331032	-2.4166494907056    0.0		0.0
4.2920000000000		0.0		0.0		-5.7255424237199	-2.3542279097725    -5.7255424237199	-2.3542279097725    0.0		0.0
4.2940000000000		0.0		0.0		-5.8211183171716	-2.2886145164058    -5.8211183171716	-2.2886145164058    0.0		0.0
4.2960000000000		0.0		0.0		-5.9168483106127	-2.2197198328570    -5.9168483106127	-2.2197198328570    0.0		0.0
4.2980000000000		0.0		0.0		-6.0126313049575	-2.1474552975253    -6.0126313049575	-2.1474552975253    0.0		0.0
4.3000000000000		0.0		0.0		-6.1083589560931	-2.0717336794598    -6.1083589560931	-2.0717336794598    0.0		0.0
4.3020000000000		0.0		0.0		-6.0791531827071	-2.0359287305277    -6.0791531827071	-2.0359287305277    0.0		0.0
4.3040000000000		0.0		0.0		-6.0502564889839	-1.9996322502662    -6.0502564889839	-1.9996322502662    0.0		0.0
4.3060000000000		0.0		0.0		-6.0216644813160	-1.9628713426241    -6.0216644813160	-1.9628713426241    0.0		0.0
4.3080000000000		0.0		0.0		-5.9933721253765	-1.9256721980261    -5.9933721253765	-1.9256721980261    0.0		0.0
4.3100000000000		0.0		0.0		-5.9653738089921	-1.8880601053456    -5.9653738089921	-1.8880601053456    0.0		0.0
4.3120000000000		0.0		0.0		-5.8816190159240	-1.7414446792367    -5.8816190159240	-1.7414446792367    0.0		0.0
4.3140000000000		0.0		0.0		-5.8008781896655	-1.5988371978307    -5.8008781896655	-1.5988371978307    0.0		0.0
4.3160000000000		0.0		0.0		-5.7228630970614	-1.4600229817192    -5.7228630970614	-1.4600229817192    0.0		0.0
4.3180000000000		0.0		0.0		-5.6473133745803	-1.3248009640827    -5.6473133745803	-1.3248009640827    0.0		0.0
4.3200000000000		0.0		0.0		-5.5739932923030	-1.1929828312341    -5.5739932923030	-1.1929828312341    0.0		0.0
4.3220000000000		0.0		0.0		-5.6181327613782	-1.1771861557287    -5.6181327613782	-1.1771861557287    0.0		0.0
4.3240000000000		0.0		0.0		-5.6625260670410	-1.1609436499718    -5.6625260670410	-1.1609436499718    0.0		0.0
4.3260000000000		0.0		0.0		-5.7071718733410	-1.1442476293276    -5.7071718733410	-1.1442476293276    0.0		0.0
4.3280000000000		0.0		0.0		-5.7520687231186	-1.1270903068551    -5.7520687231186	-1.1270903068551    0.0		0.0
4.3300000000000		0.0		0.0		-5.7972150339601	-1.1094637933127    -5.7972150339601	-1.1094637933127    0.0		0.0
4.3320000000000		0.0		0.0		-5.8034895533304	-1.1034005384996    -5.8034895533304	-1.1034005384996    0.0		0.0
4.3340000000000		0.0		0.0		-5.8098547560154	-1.0974363059239    -5.8098547560154	-1.0974363059239    0.0		0.0
4.3360000000000		0.0		0.0		-5.8163110095468	-1.0915715167205    -5.8163110095468	-1.0915715167205    0.0		0.0
4.3380000000000		0.0		0.0		-5.8228586813695	-1.0858066134287    -5.8228586813695	-1.0858066134287    0.0		0.0
4.3400000000000		0.0		0.0		-5.8294981387153	-1.0801420601805    -5.8294981387153	-1.0801420601805    0.0		0.0
4.3420000000000		0.0		0.0		-5.7777870610360	-1.0719089149472    -5.7777870610360	-1.0719089149472    0.0		0.0
4.3440000000000		0.0		0.0		-5.7267051429923	-1.0629086046449    -5.7267051429923	-1.0629086046449    0.0		0.0
4.3460000000000		0.0		0.0		-5.6762545431266	-1.0531795980971    -5.6762545431266	-1.0531795980971    0.0		0.0
4.3480000000000		0.0		0.0		-5.6264361416360	-1.0427591129091    -5.6264361416360	-1.0427591129091    0.0		0.0
4.3500000000000		0.0		0.0		-5.5772496444663	-1.0316831186519    -5.5772496444663	-1.0316831186519    0.0		0.0
4.3520000000000		0.0		0.0		-5.5813029374948	-0.86651933386157   -5.5813029374948	-0.86651933386157   0.0		0.0
4.3540000000000		0.0		0.0		-5.5823095537480	-0.70370331881585   -5.5823095537480	-0.70370331881585   0.0		0.0
